!Agilent Technologies,E5071C,MY46100297,A.09.30
!Date: Thu May 15 13:59:38 2014
!Data & Calibration Information:
!Freq	S11:SOLT2(ON)	S31:SOLT2(ON)	S13:SOLT2(ON)	S33:SOLT2(ON)
# Hz S dB R 50
100000000	-2.925254e-001	-1.780525e+002	-1.749358e+001	1.422610e+001	-1.751717e+001	1.456169e+001	-5.279193e+000	-3.858611e+001
100368750	-2.907506e-001	-1.780946e+002	-1.764983e+001	1.352089e+001	-1.767199e+001	1.386034e+001	-5.197139e+000	-4.207517e+001
100737500	-2.889503e-001	-1.781402e+002	-1.781095e+001	1.285236e+001	-1.783319e+001	1.319663e+001	-5.109071e+000	-4.547166e+001
101106250	-2.875244e-001	-1.781800e+002	-1.797715e+001	1.222523e+001	-1.799879e+001	1.257074e+001	-5.016774e+000	-4.878164e+001
101475000	-2.853711e-001	-1.782252e+002	-1.814780e+001	1.162859e+001	-1.816844e+001	1.198323e+001	-4.920319e+000	-5.200273e+001
101843750	-2.842203e-001	-1.782726e+002	-1.832306e+001	1.107734e+001	-1.834315e+001	1.143571e+001	-4.819385e+000	-5.513922e+001
102212500	-2.822669e-001	-1.783192e+002	-1.850337e+001	1.056426e+001	-1.852245e+001	1.093033e+001	-4.717586e+000	-5.818672e+001
102581250	-2.808623e-001	-1.783654e+002	-1.868865e+001	1.009569e+001	-1.870534e+001	1.046920e+001	-4.612179e+000	-6.113600e+001
102950000	-2.790854e-001	-1.784109e+002	-1.887653e+001	9.673909e+000	-1.889319e+001	1.005181e+001	-4.507439e+000	-6.400776e+001
103318750	-2.771459e-001	-1.784549e+002	-1.906877e+001	9.296624e+000	-1.908367e+001	9.673730e+000	-4.400179e+000	-6.679199e+001
103687500	-2.753413e-001	-1.785064e+002	-1.926415e+001	8.964283e+000	-1.927842e+001	9.349216e+000	-4.295578e+000	-6.949046e+001
104056250	-2.737153e-001	-1.785512e+002	-1.946300e+001	8.686512e+000	-1.947599e+001	9.077456e+000	-4.187742e+000	-7.209538e+001
104425000	-2.720207e-001	-1.786023e+002	-1.966420e+001	8.452927e+000	-1.967678e+001	8.847514e+000	-4.084090e+000	-7.462182e+001
104793750	-2.706040e-001	-1.786544e+002	-1.986899e+001	8.277490e+000	-1.988054e+001	8.670765e+000	-3.980261e+000	-7.706442e+001
105162500	-2.689325e-001	-1.787023e+002	-2.007626e+001	8.155479e+000	-2.008544e+001	8.555063e+000	-3.878029e+000	-7.942843e+001
105531250	-2.672731e-001	-1.787486e+002	-2.028487e+001	8.087022e+000	-2.029303e+001	8.480726e+000	-3.777267e+000	-8.172492e+001
105900000	-2.655199e-001	-1.787981e+002	-2.049491e+001	8.064541e+000	-2.050218e+001	8.473637e+000	-3.678764e+000	-8.393847e+001
106268750	-2.639640e-001	-1.788510e+002	-2.070813e+001	8.110711e+000	-2.071331e+001	8.511720e+000	-3.582813e+000	-8.608306e+001
106637500	-2.626004e-001	-1.789011e+002	-2.092135e+001	8.206260e+000	-2.092546e+001	8.624868e+000	-3.489352e+000	-8.816236e+001
107006250	-2.613042e-001	-1.789534e+002	-2.113559e+001	8.364346e+000	-2.113634e+001	8.781840e+000	-3.396427e+000	-9.017112e+001
107375000	-2.597352e-001	-1.790054e+002	-2.135012e+001	8.575619e+000	-2.134890e+001	9.000618e+000	-3.307988e+000	-9.211830e+001
107743750	-2.586115e-001	-1.790581e+002	-2.156400e+001	8.866468e+000	-2.156237e+001	9.276659e+000	-3.220093e+000	-9.401475e+001
108112500	-2.573915e-001	-1.791098e+002	-2.177825e+001	9.198959e+000	-2.177358e+001	9.616603e+000	-3.135443e+000	-9.584327e+001
108481250	-2.559250e-001	-1.791607e+002	-2.199116e+001	9.611610e+000	-2.198606e+001	1.002143e+001	-3.055209e+000	-9.761814e+001
108850000	-2.549631e-001	-1.792149e+002	-2.220288e+001	1.007116e+001	-2.219458e+001	1.048933e+001	-2.975320e+000	-9.932769e+001
109218750	-2.536548e-001	-1.792660e+002	-2.241108e+001	1.059479e+001	-2.240189e+001	1.101049e+001	-2.898496e+000	-1.009911e+002
109587500	-2.527303e-001	-1.793188e+002	-2.261779e+001	1.118719e+001	-2.260762e+001	1.159582e+001	-2.823373e+000	-1.026016e+002
109956250	-2.516443e-001	-1.793700e+002	-2.282181e+001	1.184236e+001	-2.280945e+001	1.225941e+001	-2.751893e+000	-1.041703e+002
110325000	-2.504638e-001	-1.794227e+002	-2.302338e+001	1.255682e+001	-2.300768e+001	1.297059e+001	-2.682059e+000	-1.056855e+002
110693750	-2.494520e-001	-1.794740e+002	-2.321871e+001	1.333880e+001	-2.320129e+001	1.374696e+001	-2.614525e+000	-1.071557e+002
111062500	-2.486092e-001	-1.795277e+002	-2.341210e+001	1.418707e+001	-2.339267e+001	1.458790e+001	-2.550299e+000	-1.085867e+002
111431250	-2.477611e-001	-1.795792e+002	-2.359858e+001	1.508671e+001	-2.357630e+001	1.547802e+001	-2.487362e+000	-1.099782e+002
111800000	-2.469595e-001	-1.796310e+002	-2.377894e+001	1.605272e+001	-2.375619e+001	1.644453e+001	-2.426586e+000	-1.113267e+002
112168750	-2.461217e-001	-1.796843e+002	-2.395546e+001	1.706126e+001	-2.392894e+001	1.745464e+001	-2.367855e+000	-1.126362e+002
112537500	-2.452936e-001	-1.797393e+002	-2.412134e+001	1.813265e+001	-2.409494e+001	1.852434e+001	-2.311652e+000	-1.139129e+002
112906250	-2.445992e-001	-1.797907e+002	-2.428062e+001	1.927792e+001	-2.425286e+001	1.964702e+001	-2.256999e+000	-1.151504e+002
113275000	-2.441656e-001	-1.798434e+002	-2.443207e+001	2.046138e+001	-2.440234e+001	2.082952e+001	-2.205394e+000	-1.163550e+002
113643750	-2.431931e-001	-1.798982e+002	-2.457601e+001	2.168631e+001	-2.454334e+001	2.204511e+001	-2.154241e+000	-1.175251e+002
114012500	-2.426557e-001	-1.799487e+002	-2.471057e+001	2.295772e+001	-2.467437e+001	2.329685e+001	-2.104965e+000	-1.186593e+002
114381250	-2.423461e-001	1.799996e+002	-2.483372e+001	2.426524e+001	-2.479716e+001	2.460042e+001	-2.057432e+000	-1.197726e+002
114750000	-2.417984e-001	1.799446e+002	-2.494893e+001	2.560303e+001	-2.491071e+001	2.592644e+001	-2.011601e+000	-1.208574e+002
115118750	-2.412250e-001	1.798934e+002	-2.505116e+001	2.698828e+001	-2.501452e+001	2.728917e+001	-1.966892e+000	-1.219117e+002
115487500	-2.409258e-001	1.798443e+002	-2.514600e+001	2.838886e+001	-2.510634e+001	2.868212e+001	-1.925225e+000	-1.229363e+002
115856250	-2.403028e-001	1.797893e+002	-2.522570e+001	2.980523e+001	-2.518694e+001	3.009586e+001	-1.884811e+000	-1.239310e+002
116225000	-2.400901e-001	1.797372e+002	-2.529884e+001	3.124922e+001	-2.525688e+001	3.151233e+001	-1.844846e+000	-1.249046e+002
116593750	-2.396541e-001	1.796842e+002	-2.535854e+001	3.268490e+001	-2.531640e+001	3.294924e+001	-1.806419e+000	-1.258550e+002
116962500	-2.395866e-001	1.796347e+002	-2.540730e+001	3.413948e+001	-2.536479e+001	3.437907e+001	-1.768936e+000	-1.267763e+002
117331250	-2.390641e-001	1.795816e+002	-2.544571e+001	3.558390e+001	-2.540149e+001	3.581089e+001	-1.733256e+000	-1.276823e+002
117700000	-2.385320e-001	1.795288e+002	-2.547486e+001	3.703136e+001	-2.543150e+001	3.725259e+001	-1.699348e+000	-1.285669e+002
118068750	-2.383817e-001	1.794789e+002	-2.549003e+001	3.847168e+001	-2.544865e+001	3.866893e+001	-1.665640e+000	-1.294262e+002
118437500	-2.386783e-001	1.794289e+002	-2.549906e+001	3.989371e+001	-2.545576e+001	4.008521e+001	-1.633411e+000	-1.302627e+002
118806250	-2.380709e-001	1.793758e+002	-2.549764e+001	4.129392e+001	-2.545373e+001	4.146530e+001	-1.601929e+000	-1.310870e+002
119175000	-2.380520e-001	1.793232e+002	-2.548716e+001	4.267226e+001	-2.544233e+001	4.283950e+001	-1.572237e+000	-1.318852e+002
119543750	-2.380151e-001	1.792744e+002	-2.546640e+001	4.402542e+001	-2.542371e+001	4.418541e+001	-1.542968e+000	-1.326674e+002
119912500	-2.379508e-001	1.792230e+002	-2.543773e+001	4.535913e+001	-2.539565e+001	4.548828e+001	-1.514543e+000	-1.334368e+002
120281250	-2.378041e-001	1.791702e+002	-2.540236e+001	4.664739e+001	-2.536010e+001	4.677790e+001	-1.487630e+000	-1.341817e+002
120650000	-2.377620e-001	1.791179e+002	-2.535943e+001	4.791577e+001	-2.531782e+001	4.803282e+001	-1.461578e+000	-1.349134e+002
121018750	-2.380656e-001	1.790699e+002	-2.530885e+001	4.915094e+001	-2.527033e+001	4.925462e+001	-1.434983e+000	-1.356328e+002
121387500	-2.380687e-001	1.790175e+002	-2.525384e+001	5.034491e+001	-2.521445e+001	5.042443e+001	-1.410997e+000	-1.363325e+002
121756250	-2.380084e-001	1.789681e+002	-2.519221e+001	5.150000e+001	-2.515216e+001	5.158579e+001	-1.386983e+000	-1.370107e+002
122125000	-2.383868e-001	1.789173e+002	-2.512694e+001	5.262442e+001	-2.508828e+001	5.269623e+001	-1.363784e+000	-1.376892e+002
122493750	-2.381566e-001	1.788681e+002	-2.505451e+001	5.368982e+001	-2.501696e+001	5.377014e+001	-1.341989e+000	-1.383424e+002
122862500	-2.385692e-001	1.788190e+002	-2.498056e+001	5.475413e+001	-2.494433e+001	5.480474e+001	-1.320420e+000	-1.389841e+002
123231250	-2.382002e-001	1.787697e+002	-2.490184e+001	5.575499e+001	-2.486546e+001	5.581093e+001	-1.299355e+000	-1.396133e+002
123600000	-2.386746e-001	1.787201e+002	-2.481877e+001	5.672922e+001	-2.478434e+001	5.677235e+001	-1.279059e+000	-1.402352e+002
123968750	-2.387282e-001	1.786671e+002	-2.473303e+001	5.765882e+001	-2.469953e+001	5.769785e+001	-1.258669e+000	-1.408365e+002
124337500	-2.387682e-001	1.786204e+002	-2.464595e+001	5.855911e+001	-2.461281e+001	5.859358e+001	-1.240151e+000	-1.414296e+002
124706250	-2.390332e-001	1.785669e+002	-2.455677e+001	5.940671e+001	-2.452478e+001	5.944156e+001	-1.220631e+000	-1.420092e+002
125075000	-2.394290e-001	1.785207e+002	-2.446382e+001	6.023202e+001	-2.443470e+001	6.026862e+001	-1.203579e+000	-1.425802e+002
125443750	-2.397998e-001	1.784726e+002	-2.437174e+001	6.103264e+001	-2.434177e+001	6.105384e+001	-1.186003e+000	-1.431403e+002
125812500	-2.397270e-001	1.784207e+002	-2.427628e+001	6.179391e+001	-2.424646e+001	6.180872e+001	-1.169001e+000	-1.436889e+002
126181250	-2.398094e-001	1.783751e+002	-2.418210e+001	6.250920e+001	-2.415496e+001	6.253334e+001	-1.152314e+000	-1.442287e+002
126550000	-2.397977e-001	1.783281e+002	-2.408364e+001	6.321240e+001	-2.405810e+001	6.323090e+001	-1.136844e+000	-1.447520e+002
126918750	-2.406182e-001	1.782784e+002	-2.398881e+001	6.387897e+001	-2.396134e+001	6.389054e+001	-1.121534e+000	-1.452710e+002
127287500	-2.407572e-001	1.782275e+002	-2.389217e+001	6.451591e+001	-2.386709e+001	6.452328e+001	-1.106508e+000	-1.457830e+002
127656250	-2.405878e-001	1.781813e+002	-2.379338e+001	6.511999e+001	-2.376932e+001	6.512807e+001	-1.091744e+000	-1.462851e+002
128025000	-2.418219e-001	1.781307e+002	-2.369670e+001	6.571133e+001	-2.367263e+001	6.570665e+001	-1.077739e+000	-1.467754e+002
128393750	-2.411247e-001	1.780800e+002	-2.359884e+001	6.625654e+001	-2.357600e+001	6.625957e+001	-1.063416e+000	-1.472599e+002
128762500	-2.419318e-001	1.780369e+002	-2.350163e+001	6.679471e+001	-2.347925e+001	6.679480e+001	-1.050179e+000	-1.477308e+002
129131250	-2.426910e-001	1.779894e+002	-2.340299e+001	6.729867e+001	-2.338293e+001	6.729844e+001	-1.036916e+000	-1.481994e+002
129500000	-2.425012e-001	1.779378e+002	-2.330640e+001	6.778787e+001	-2.328574e+001	6.778490e+001	-1.024149e+000	-1.486564e+002
129868750	-2.433523e-001	1.778939e+002	-2.321063e+001	6.825324e+001	-2.319128e+001	6.825223e+001	-1.012508e+000	-1.491102e+002
130237500	-2.437355e-001	1.778439e+002	-2.311469e+001	6.869504e+001	-2.309616e+001	6.869616e+001	-1.000228e+000	-1.495529e+002
130606250	-2.442721e-001	1.777980e+002	-2.302000e+001	6.912192e+001	-2.299965e+001	6.912462e+001	-9.887409e-001	-1.499926e+002
130975000	-2.444291e-001	1.777466e+002	-2.292403e+001	6.952636e+001	-2.290652e+001	6.951521e+001	-9.775187e-001	-1.504173e+002
131343750	-2.447812e-001	1.777004e+002	-2.283110e+001	6.991980e+001	-2.281345e+001	6.991370e+001	-9.665608e-001	-1.508396e+002
131712500	-2.447147e-001	1.776559e+002	-2.273629e+001	7.027707e+001	-2.272112e+001	7.027255e+001	-9.558624e-001	-1.512555e+002
132081250	-2.460736e-001	1.776080e+002	-2.264477e+001	7.063483e+001	-2.262998e+001	7.063017e+001	-9.455717e-001	-1.516675e+002
132450000	-2.470431e-001	1.775654e+002	-2.255359e+001	7.098078e+001	-2.253930e+001	7.095529e+001	-9.347198e-001	-1.520700e+002
132818750	-2.473717e-001	1.775135e+002	-2.246154e+001	7.128655e+001	-2.244809e+001	7.128207e+001	-9.254551e-001	-1.524672e+002
133187500	-2.474976e-001	1.774690e+002	-2.237180e+001	7.160253e+001	-2.235896e+001	7.159422e+001	-9.160182e-001	-1.528534e+002
133556250	-2.489325e-001	1.774218e+002	-2.228262e+001	7.189951e+001	-2.227033e+001	7.188678e+001	-9.068404e-001	-1.532443e+002
133925000	-2.489026e-001	1.773800e+002	-2.219643e+001	7.218378e+001	-2.218144e+001	7.216086e+001	-8.970320e-001	-1.536204e+002
134293750	-2.492392e-001	1.773314e+002	-2.210717e+001	7.245765e+001	-2.209499e+001	7.243727e+001	-8.885634e-001	-1.539928e+002
134662500	-2.498811e-001	1.772780e+002	-2.201936e+001	7.269280e+001	-2.200857e+001	7.268859e+001	-8.800806e-001	-1.543624e+002
135031250	-2.507336e-001	1.772389e+002	-2.193685e+001	7.295057e+001	-2.192345e+001	7.293647e+001	-8.718087e-001	-1.547226e+002
135400000	-2.513332e-001	1.771878e+002	-2.185032e+001	7.318386e+001	-2.183859e+001	7.316075e+001	-8.630529e-001	-1.550846e+002
135768750	-2.521593e-001	1.771466e+002	-2.176751e+001	7.340403e+001	-2.175585e+001	7.339341e+001	-8.555654e-001	-1.554371e+002
136137500	-2.532789e-001	1.771044e+002	-2.168439e+001	7.361725e+001	-2.167386e+001	7.359836e+001	-8.473142e-001	-1.557862e+002
136506250	-2.529883e-001	1.770553e+002	-2.160216e+001	7.382781e+001	-2.159216e+001	7.380463e+001	-8.401024e-001	-1.561307e+002
136875000	-2.544295e-001	1.770090e+002	-2.152027e+001	7.401228e+001	-2.151181e+001	7.399082e+001	-8.322287e-001	-1.564647e+002
137243750	-2.545759e-001	1.769650e+002	-2.144010e+001	7.420538e+001	-2.143114e+001	7.417952e+001	-8.256111e-001	-1.567981e+002
137612500	-2.546732e-001	1.769130e+002	-2.136162e+001	7.437925e+001	-2.135128e+001	7.435277e+001	-8.190965e-001	-1.571266e+002
137981250	-2.553845e-001	1.768700e+002	-2.128108e+001	7.454392e+001	-2.127342e+001	7.452644e+001	-8.121581e-001	-1.574507e+002
138350000	-2.555831e-001	1.768252e+002	-2.120386e+001	7.470438e+001	-2.119482e+001	7.469218e+001	-8.057286e-001	-1.577698e+002
138718750	-2.566265e-001	1.767763e+002	-2.112661e+001	7.485720e+001	-2.111841e+001	7.483565e+001	-7.994338e-001	-1.580928e+002
139087500	-2.565259e-001	1.767343e+002	-2.105071e+001	7.500173e+001	-2.104320e+001	7.498065e+001	-7.931453e-001	-1.584000e+002
139456250	-2.579286e-001	1.766881e+002	-2.097553e+001	7.513709e+001	-2.096695e+001	7.512371e+001	-7.875835e-001	-1.587110e+002
139825000	-2.594799e-001	1.766467e+002	-2.090169e+001	7.527615e+001	-2.089328e+001	7.525044e+001	-7.816244e-001	-1.590135e+002
140193750	-2.593984e-001	1.766010e+002	-2.082708e+001	7.540035e+001	-2.082080e+001	7.537890e+001	-7.760923e-001	-1.593162e+002
140562500	-2.601621e-001	1.765581e+002	-2.075459e+001	7.552731e+001	-2.074757e+001	7.549943e+001	-7.703844e-001	-1.596047e+002
140931250	-2.615808e-001	1.765085e+002	-2.068233e+001	7.563760e+001	-2.067660e+001	7.561789e+001	-7.651805e-001	-1.599061e+002
141300000	-2.616157e-001	1.764648e+002	-2.061143e+001	7.574356e+001	-2.060489e+001	7.573329e+001	-7.596066e-001	-1.601912e+002
141668750	-2.612607e-001	1.764140e+002	-2.053977e+001	7.585064e+001	-2.053348e+001	7.582676e+001	-7.543986e-001	-1.604778e+002
142037500	-2.630747e-001	1.763725e+002	-2.047041e+001	7.593803e+001	-2.046519e+001	7.592740e+001	-7.491986e-001	-1.607582e+002
142406250	-2.633213e-001	1.763268e+002	-2.040118e+001	7.603808e+001	-2.039561e+001	7.602646e+001	-7.437536e-001	-1.610429e+002
142775000	-2.644737e-001	1.762818e+002	-2.033231e+001	7.612360e+001	-2.032707e+001	7.610903e+001	-7.392636e-001	-1.613199e+002
143143750	-2.644322e-001	1.762390e+002	-2.026377e+001	7.621625e+001	-2.025937e+001	7.618806e+001	-7.344994e-001	-1.615897e+002
143512500	-2.654202e-001	1.761928e+002	-2.019701e+001	7.628772e+001	-2.019207e+001	7.627005e+001	-7.300279e-001	-1.618566e+002
143881250	-2.654594e-001	1.761526e+002	-2.013138e+001	7.636418e+001	-2.012658e+001	7.634351e+001	-7.255507e-001	-1.621246e+002
144250000	-2.672872e-001	1.761076e+002	-2.006630e+001	7.644204e+001	-2.006156e+001	7.642302e+001	-7.214367e-001	-1.623936e+002
144618750	-2.676887e-001	1.760593e+002	-2.000149e+001	7.650037e+001	-1.999577e+001	7.648651e+001	-7.170027e-001	-1.626519e+002
144987500	-2.686381e-001	1.760132e+002	-1.993635e+001	7.657760e+001	-1.993041e+001	7.655651e+001	-7.121297e-001	-1.629116e+002
145356250	-2.691239e-001	1.759732e+002	-1.987338e+001	7.663251e+001	-1.986647e+001	7.661004e+001	-7.086187e-001	-1.631669e+002
145725000	-2.695119e-001	1.759276e+002	-1.981098e+001	7.668399e+001	-1.980454e+001	7.666632e+001	-7.049283e-001	-1.634150e+002
146093750	-2.707788e-001	1.758890e+002	-1.974748e+001	7.674547e+001	-1.974240e+001	7.672623e+001	-7.016230e-001	-1.636649e+002
146462500	-2.712537e-001	1.758397e+002	-1.968455e+001	7.678703e+001	-1.968119e+001	7.677107e+001	-6.982802e-001	-1.639141e+002
146831250	-2.726768e-001	1.757933e+002	-1.962417e+001	7.684062e+001	-1.961951e+001	7.682328e+001	-6.946461e-001	-1.641561e+002
147200000	-2.733519e-001	1.757546e+002	-1.956306e+001	7.688298e+001	-1.955883e+001	7.686164e+001	-6.909260e-001	-1.644018e+002
147568750	-2.742292e-001	1.757104e+002	-1.950468e+001	7.692523e+001	-1.949883e+001	7.691254e+001	-6.884638e-001	-1.646444e+002
147937500	-2.736420e-001	1.756633e+002	-1.944446e+001	7.696496e+001	-1.943889e+001	7.693800e+001	-6.834047e-001	-1.648806e+002
148306250	-2.756686e-001	1.756223e+002	-1.938423e+001	7.698892e+001	-1.938016e+001	7.698645e+001	-6.810165e-001	-1.651111e+002
148675000	-2.757822e-001	1.755812e+002	-1.932593e+001	7.703593e+001	-1.932071e+001	7.701005e+001	-6.777355e-001	-1.653442e+002
149043750	-2.762627e-001	1.755360e+002	-1.926807e+001	7.706104e+001	-1.926345e+001	7.704125e+001	-6.751194e-001	-1.655746e+002
149412500	-2.778243e-001	1.754905e+002	-1.921151e+001	7.708319e+001	-1.920570e+001	7.707539e+001	-6.719430e-001	-1.658021e+002
149781250	-2.781237e-001	1.754519e+002	-1.915441e+001	7.710560e+001	-1.914806e+001	7.709886e+001	-6.680888e-001	-1.660281e+002
150150000	-2.784067e-001	1.754038e+002	-1.909680e+001	7.713312e+001	-1.909273e+001	7.712158e+001	-6.660146e-001	-1.662520e+002
150518750	-2.800680e-001	1.753660e+002	-1.904229e+001	7.715895e+001	-1.903693e+001	7.714971e+001	-6.631075e-001	-1.664743e+002
150887500	-2.801387e-001	1.753205e+002	-1.898644e+001	7.717601e+001	-1.898102e+001	7.717160e+001	-6.605038e-001	-1.666926e+002
151256250	-2.806564e-001	1.752761e+002	-1.893048e+001	7.719349e+001	-1.892590e+001	7.717943e+001	-6.571276e-001	-1.669138e+002
151625000	-2.812909e-001	1.752329e+002	-1.887567e+001	7.720933e+001	-1.887126e+001	7.719814e+001	-6.556916e-001	-1.671275e+002
151993750	-2.825357e-001	1.751884e+002	-1.882137e+001	7.721857e+001	-1.881731e+001	7.721165e+001	-6.527269e-001	-1.673429e+002
152362500	-2.834636e-001	1.751447e+002	-1.876863e+001	7.723037e+001	-1.876180e+001	7.722238e+001	-6.500289e-001	-1.675537e+002
152731250	-2.850833e-001	1.751020e+002	-1.871508e+001	7.724656e+001	-1.871036e+001	7.723093e+001	-6.471031e-001	-1.677613e+002
153100000	-2.849772e-001	1.750644e+002	-1.866286e+001	7.725561e+001	-1.865538e+001	7.723029e+001	-6.453252e-001	-1.679692e+002
153468750	-2.855089e-001	1.750138e+002	-1.861033e+001	7.725377e+001	-1.860447e+001	7.724263e+001	-6.429201e-001	-1.681770e+002
153837500	-2.872801e-001	1.749788e+002	-1.855862e+001	7.726303e+001	-1.855273e+001	7.725203e+001	-6.418155e-001	-1.683794e+002
154206250	-2.872944e-001	1.749333e+002	-1.850662e+001	7.726783e+001	-1.850040e+001	7.725271e+001	-6.391313e-001	-1.685815e+002
154575000	-2.890842e-001	1.748906e+002	-1.845608e+001	7.726937e+001	-1.844915e+001	7.725842e+001	-6.369410e-001	-1.687806e+002
154943750	-2.899743e-001	1.748479e+002	-1.840629e+001	7.726303e+001	-1.839851e+001	7.725354e+001	-6.351776e-001	-1.689839e+002
155312500	-2.900904e-001	1.748074e+002	-1.835619e+001	7.726667e+001	-1.834864e+001	7.725730e+001	-6.334463e-001	-1.691778e+002
155681250	-2.914460e-001	1.747613e+002	-1.830550e+001	7.726421e+001	-1.829913e+001	7.725430e+001	-6.321310e-001	-1.693774e+002
156050000	-2.925316e-001	1.747223e+002	-1.825651e+001	7.725146e+001	-1.824877e+001	7.724685e+001	-6.299825e-001	-1.695697e+002
156418750	-2.932643e-001	1.746770e+002	-1.820706e+001	7.725164e+001	-1.819826e+001	7.724132e+001	-6.283191e-001	-1.697603e+002
156787500	-2.935635e-001	1.746379e+002	-1.815849e+001	7.724732e+001	-1.815056e+001	7.723862e+001	-6.268517e-001	-1.699573e+002
