!Agilent Technologies,N5230C,US43500524,A.09.42.22
!Agilent N5230C: A.09.42.22
!Date: Tuesday, June 02, 2015 09:35:36
!Correction: S11(Full 4 Port(1,2,3,4)) 
!S21(Full 4 Port(1,2,3,4)) 
!S12(Full 4 Port(1,2,3,4)) 
!S22(Full 4 Port(1,2,3,4)) 
!S2P File: Measurements: S11, S21, S12, S22:
# Hz S  MA   R 50
300000 0.031001477 83.412407 0.99557841 -0.4486427 0.9950766 -0.32566565 0.013723454 68.432205
12799812.5 0.0046458156 7.5914702 0.99605197 -1.7646198 0.99607325 -1.766663 0.0059882794 3.435653
25299625 0.0050351666 2.6831567 0.99659228 -3.448164 0.99662137 -3.4377186 0.0041031921 2.2629147
37799437.5 0.0036588463 -8.7991619 0.99574244 -5.128108 0.99564797 -5.1358576 0.0033341686 -18.620623
50299250 0.0031266992 17.292582 0.9952817 -6.7934837 0.99534535 -6.7899575 0.0028674279 -9.9000645
62799062.5 0.0047373753 15.515227 0.99506128 -8.445364 0.99506116 -8.4390354 0.0035321505 -4.2489519
75298875 0.0054625031 4.5782323 0.99456251 -10.097799 0.99451685 -10.092787 0.004303623 0.32002738
87798687.5 0.0057124645 -10.377434 0.99389684 -11.74675 0.99406689 -11.734643 0.0045981281 -5.0678134
100298500 0.0050355243 -13.669876 0.99379247 -13.427254 0.99380118 -13.420835 0.0052445307 -16.727528
112798312.5 0.0045572892 -13.157897 0.99359345 -15.095467 0.99369156 -15.097035 0.0060642175 -25.398199
125298125 0.0048403484 -23.717653 0.99357581 -16.744722 0.99338824 -16.750874 0.0064744488 -28.61067
137797937.5 0.0056433841 -12.939363 0.99289531 -18.429749 0.99297231 -18.379765 0.0065386142 -31.443975
150297750 0.0044688098 -20.697639 0.99181122 -20.016426 0.99227929 -20.020018 0.0064456388 -31.786556
162797562.5 0.0051907804 -24.141033 0.99168843 -21.639896 0.99211228 -21.633215 0.0054732962 -29.939707
175297375 0.0061668893 -34.884029 0.99200612 -23.295052 0.9925158 -23.317078 0.0069253296 -53.524666
187797187.5 0.0062859226 -32.778107 0.99162638 -24.932917 0.99119693 -24.957926 0.0079471832 -41.074837
200297000 0.0059554302 -39.616726 0.9913919 -26.581034 0.99108863 -26.577785 0.0067731068 -53.63266
212796812.5 0.0058204159 -45.148251 0.99095762 -28.23295 0.99087602 -28.223661 0.0071328073 -60.729877
225296625 0.0061767013 -50.805359 0.99069583 -29.876785 0.99073446 -29.872993 0.0072412346 -63.90176
237796437.5 0.0068786228 -58.110081 0.99045759 -31.5308 0.99050754 -31.534069 0.0078445096 -67.201218
250296250 0.0071255723 -60.597137 0.99032587 -33.174492 0.9902668 -33.171013 0.0084154056 -70.531578
262796062.5 0.0068093357 -61.278164 0.99012572 -34.816494 0.98999041 -34.812557 0.0084358295 -73.421867
275295875 0.0066081071 -64.212242 0.98987824 -36.471016 0.9897601 -36.44788 0.0080270143 -76.036835
287795687.5 0.0069235745 -62.206371 0.98963422 -38.123871 0.98933935 -38.092148 0.0078988131 -78.006363
300295500 0.006599097 -65.420029 0.98886782 -39.753021 0.98925644 -39.729095 0.0082605109 -80.5084
312795312.5 0.0070713265 -70.35025 0.98847991 -41.3764 0.98903394 -41.365192 0.0091239261 -85.687477
325295125 0.0070811724 -79.339882 0.98825014 -42.995987 0.98862028 -43.005615 0.0094364472 -91.036552
337794937.5 0.0070411935 -80.786858 0.98843163 -44.623077 0.98828083 -44.636276 0.0093436744 -96.004547
350294750 0.0077046566 -82.088974 0.9881863 -46.252678 0.98822844 -46.264542 0.0093119154 -100.14217
362794562.5 0.0082853185 -82.929443 0.98816431 -47.907677 0.98810989 -47.911186 0.009586473 -103.97411
375294375 0.0079639582 -82.504379 0.98798847 -49.560047 0.98797566 -49.555767 0.0095855501 -108.6806
387794187.5 0.0077396524 -83.941833 0.98766357 -51.203167 0.98756117 -51.199978 0.0094673727 -111.1777
400294000 0.0077173933 -87.230705 0.98746783 -52.82822 0.98733497 -52.846729 0.0093735866 -114.70945
412793812.5 0.0079917349 -92.216171 0.987257 -54.475983 0.98706025 -54.47789 0.0095454054 -117.59051
425293625 0.0081580998 -97.258957 0.98713404 -56.113144 0.98686224 -56.120831 0.010130279 -118.94392
437793437.5 0.0081190737 -100.92227 0.98692048 -57.763885 0.98671043 -57.763226 0.010624994 -119.8069
450293250 0.0082873199 -101.76228 0.98696625 -59.395988 0.98662823 -59.392136 0.010601688 -120.10442
462793062.5 0.0085107554 -102.18079 0.98660165 -61.025871 0.98606747 -61.029995 0.010382398 -122.52113
475292875 0.0088130869 -104.06086 0.98632795 -62.675285 0.98582345 -62.675163 0.0098140594 -124.83227
487792687.5 0.008681614 -104.5469 0.98624003 -64.323006 0.98582125 -64.307266 0.0096323052 -128.13962
500292500 0.0084348992 -103.9495 0.98588836 -65.973137 0.98560542 -65.943687 0.0099415872 -131.06549
512792312.5 0.0089221755 -109.43237 0.98563498 -67.618866 0.98534495 -67.574158 0.010630644 -133.3855
525292125 0.0087383213 -115.19778 0.98508114 -69.264847 0.98505312 -69.220459 0.010734178 -135.63202
537791937.5 0.0076747872 -118.2336 0.98474789 -70.908539 0.98484677 -70.851814 0.010417405 -136.94194
550291750 0.0073113982 -112.17374 0.98429257 -72.53421 0.98458838 -72.491051 0.0099888248 -138.03416
562791562.5 0.0077484194 -108.71561 0.98392069 -74.154915 0.98453081 -74.122543 0.0098364148 -140.05524
575291375 0.0073123253 -112.88872 0.98382735 -75.767334 0.9843272 -75.759567 0.0092523871 -144.66199
587791187.5 0.006896121 -110.31061 0.98340678 -77.39492 0.98399603 -77.388496 0.0084338579 -149.89049
600291000 0.0074430727 -107.53888 0.98346877 -79.01091 0.98387802 -79.018761 0.008281922 -155.681
612790812.5 0.0079201618 -112.94403 0.98328233 -80.658936 0.98362553 -80.653854 0.008661041 -158.73242
625290625 0.0078611877 -120.20872 0.98316956 -82.294594 0.98345906 -82.289284 0.0095655089 -162.02995
637790437.5 0.0071584447 -126.02844 0.98315513 -83.932007 0.98341268 -83.933899 0.0098846098 -162.27771
650290250 0.00671446 -125.47309 0.98287565 -85.566406 0.98317754 -85.569649 0.0094941892 -161.71913
662790062.5 0.0064641316 -123.48777 0.9828611 -87.213898 0.98283321 -87.198647 0.0088490834 -163.44148
675289875 0.0063040443 -119.97887 0.98279089 -88.848953 0.98293376 -88.839676 0.0079287393 -166.09489
687789687.5 0.0062513757 -117.41915 0.98262763 -90.490562 0.98268592 -90.469009 0.007407506 -171.76286
700289500 0.0062795151 -118.24202 0.98236263 -92.101738 0.98241442 -92.105034 0.007124423 -178.63965
712789312.5 0.0063420334 -119.42355 0.98220813 -93.753448 0.98227596 -93.733543 0.0071631335 175.04042
725289125 0.0060863057 -120.69271 0.98178995 -95.372078 0.98208803 -95.363815 0.0074135456 170.25591
737788937.5 0.0055680606 -120.99813 0.98173785 -96.997742 0.98170751 -96.983093 0.0075148982 167.707
750288750 0.0048693293 -117.88876 0.98165214 -98.642464 0.98154545 -98.626343 0.0072792657 168.50887
762788562.5 0.0039034383 -111.90566 0.98136532 -100.27357 0.98144114 -100.26132 0.006698864 169.31767
775288375 0.0034664851 -100.52882 0.98114085 -101.90594 0.98136622 -101.89651 0.0059407279 167.83821
787788187.5 0.0035149297 -91.386147 0.98096007 -103.54182 0.98109859 -103.54926 0.0051094261 160.81847
800288000 0.0037265131 -90.793701 0.98083401 -105.19157 0.98110235 -105.18085 0.0049310974 150.17583
812787812.5 0.0040908195 -97.358109 0.98070818 -106.82731 0.98087645 -106.81345 0.0050868071 143.86359
825287625 0.0041125873 -106.84809 0.98068917 -108.46702 0.98056155 -108.45061 0.0055828197 142.62059
837787437.5 0.0037772434 -111.23026 0.98031133 -110.10498 0.98054951 -110.08246 0.0056140558 142.12238
850287250 0.0032355888 -103.08395 0.98009354 -111.73687 0.98018795 -111.71998 0.0050962586 140.10384
862787062.5 0.0030552365 -84.429237 0.97987533 -113.37074 0.98007178 -113.3485 0.0041120322 139.90109
875286875 0.0031799944 -70.424774 0.9796958 -115.01339 0.9798798 -114.99144 0.0031223444 134.94884
887786687.5 0.0032893857 -52.448086 0.97941476 -116.63313 0.97981328 -116.61091 0.0026381148 127.93017
900286500 0.0035676435 -41.923435 0.97910422 -118.25571 0.9793992 -118.25172 0.0024862259 109.87975
912786312.5 0.0040841592 -42.675694 0.97888976 -119.88174 0.97919309 -119.87414 0.0026519827 99.037323
925286125 0.0040519694 -46.958431 0.97870016 -121.51224 0.9790374 -121.48668 0.0026750849 94.025139
937785937.5 0.0039036074 -42.218983 0.97857529 -123.1351 0.97887552 -123.12367 0.0024019806 92.475517
950285750 0.0045444788 -30.533506 0.97849327 -124.76658 0.97889805 -124.76575 0.0016680609 90.10022
962785562.5 0.0058745872 -25.185448 0.97809511 -126.39909 0.97855335 -126.39226 0.0009412503 50.483299
975285375 0.0072915996 -25.408247 0.97823352 -128.0377 0.97838467 -128.03912 0.0017517545 -25.49473
987785187.5 0.008187213 -27.241989 0.9778502 -129.67427 0.97820008 -129.67049 0.0030613132 -33.697521
1000285000 0.0088396398 -25.914272 0.97784901 -131.30063 0.97813708 -131.30531 0.0039223894 -36.699661
1012784812.5 0.0093623651 -26.034277 0.97772926 -132.94086 0.97784215 -132.94666 0.0044210921 -29.832737
1025284625 0.0094970232 -27.184736 0.97748953 -134.56194 0.97772712 -134.57262 0.0044770045 -29.317955
1037784437.5 0.0097204857 -27.836452 0.97733068 -136.19902 0.97740996 -136.19318 0.0049362816 -32.481228
1050284250 0.01024785 -26.43705 0.97726238 -137.82724 0.97747201 -137.82608 0.0054514948 -38.543243
1062784062.5 0.011373804 -25.37509 0.97692508 -139.46294 0.9772141 -139.46443 0.0062667965 -44.542164
1075283875 0.012920672 -26.295361 0.97697896 -141.10265 0.9771871 -141.09871 0.0074960296 -50.373901
1087783687.5 0.014089646 -28.093405 0.97683543 -142.74132 0.97712797 -142.73425 0.0086862175 -53.857998
1100283500 0.014968496 -31.079447 0.97662067 -144.37173 0.97679758 -144.36642 0.0095495703 -55.134495
1112783312.5 0.015588799 -32.716274 0.97640103 -146.01357 0.97672379 -146.00496 0.010338059 -53.158825
1125283125 0.016206432 -34.753922 0.97632271 -147.64522 0.97659922 -147.65385 0.010837428 -53.810436
1137782937.5 0.017025664 -35.731182 0.97614807 -149.27324 0.97643858 -149.28572 0.011232194 -55.754532
1150282750 0.017956061 -36.513245 0.97594506 -150.9126 0.97627914 -150.90814 0.011769218 -60.718441
1162782562.5 0.019029714 -36.043079 0.97600812 -152.54327 0.97626919 -152.54002 0.012730862 -65.578682
1175282375 0.020320207 -36.405407 0.97582656 -154.16479 0.97594976 -154.16788 0.014151554 -68.330292
1187782187.5 0.021371383 -37.683544 0.97568941 -155.79617 0.97586364 -155.79326 0.015532073 -70.279678
1200282000 0.0220768 -39.670982 0.97533768 -157.42082 0.97577542 -157.42969 0.01667453 -71.804619
1212781812.5 0.022115139 -41.501724 0.97532564 -159.05017 0.97553825 -159.0575 0.016812926 -73.147949
1225281625 0.022220176 -42.956249 0.97508025 -160.68559 0.97516948 -160.69559 0.01671657 -73.791046
1237781437.5 0.022634441 -44.125183 0.97497386 -162.32164 0.97511333 -162.32623 0.017024694 -75.221733
1250281250 0.023518205 -44.516693 0.97469276 -163.95399 0.97482765 -163.96249 0.017695419 -79.087898
1262781062.5 0.024900101 -44.642632 0.97453517 -165.59846 0.97466278 -165.6188 0.018828336 -84.364769
1275280875 0.026608864 -44.481743 0.97443384 -167.23141 0.97454304 -167.24367 0.020181725 -88.548508
1287780687.5 0.028500898 -45.462395 0.97422802 -168.87337 0.97436941 -168.88388 0.021631394 -91.165924
1300280500 0.029876027 -47.378559 0.97409058 -170.50664 0.97434127 -170.51057 0.023203051 -92.147461
1312780312.5 0.030499116 -49.944065 0.97379756 -172.13657 0.97403216 -172.14755 0.024408063 -93.203857
1325280125 0.03080719 -52.608299 0.97376031 -173.77475 0.97385561 -173.77611 0.024691785 -94.513466
1337779937.5 0.030874565 -54.321125 0.9734751 -175.3997 0.97360176 -175.41606 0.024545453 -96.126816
1350279750 0.031392347 -55.706421 0.97327507 -177.03813 0.97340125 -177.04498 0.024855459 -98.331467
1362779562.5 0.032194592 -56.473495 0.97312587 -178.66797 0.97335064 -178.69005 0.025900466 -101.19225
1375279375 0.033365753 -57.056942 0.97295821 179.68951 0.97300196 179.67647 0.027200213 -104.10138
1387779187.5 0.034478549 -58.002453 0.97279525 178.05954 0.97286433 178.04652 0.028488468 -106.70809
1400279000 0.035179671 -59.283104 0.97246188 176.42491 0.97271258 176.41139 0.029357621 -108.2184
1412778812.5 0.03592762 -61.180424 0.97229302 174.79315 0.97239089 174.7831 0.030133633 -108.60529
1425278625 0.036185991 -63.229465 0.97219682 173.16054 0.97224081 173.15138 0.030568335 -108.83287
1437778437.5 0.036564194 -65.066345 0.97200608 171.532 0.97200322 171.51819 0.031336978 -109.69815
1450278250 0.037279312 -66.500237 0.97172302 169.8988 0.97188342 169.88454 0.031869289 -112.14314
1462778062.5 0.038605724 -67.144577 0.97149932 168.27597 0.97159868 168.25951 0.03249355 -115.52469
1475277875 0.040366702 -67.740456 0.97141093 166.64005 0.97114432 166.6281 0.03323729 -118.65043
1487777687.5 0.042063411 -68.462318 0.97102737 165.01389 0.9710471 164.9964 0.034391548 -121.43375
1500277500 0.043304712 -69.992882 0.97080773 163.36305 0.970999 163.37093 0.035610307 -123.57198
1512777312.5 0.043532796 -71.344513 0.97067803 161.75208 0.97066689 161.73625 0.036269736 -125.53651
1525277125 0.043066576 -72.605949 0.9706825 160.11894 0.9705416 160.11604 0.036290258 -126.64812
1537776937.5 0.042762224 -74.137878 0.97052914 158.48721 0.97048861 158.48335 0.03620721 -127.74551
1550276750 0.042954292 -75.404488 0.97003871 156.853 0.97025251 156.84932 0.036643293 -129.00137
1562776562.5 0.043535393 -77.038628 0.97010809 155.22533 0.97011244 155.21381 0.037443314 -131.1787
1575276375 0.044676576 -78.409126 0.97001421 153.59715 0.96987188 153.57556 0.038784008 -134.2554
1587776187.5 0.046037689 -79.426674 0.96963125 151.96758 0.96981043 151.95457 0.040009703 -137.0589
1600276000 0.04742926 -81.140953 0.96950847 150.34158 0.96942288 150.32288 0.040897079 -139.15469
1612775812.5 0.04812777 -83.100914 0.96927571 148.70628 0.96930265 148.69867 0.041866899 -140.54488
1625275625 0.048066221 -85.027718 0.96913832 147.08609 0.96913964 147.07031 0.042694286 -142.14606
1637775437.5 0.047630288 -86.714905 0.96902329 145.44592 0.96875632 145.44554 0.042683803 -143.91284
1650275250 0.04755589 -87.798309 0.9687649 143.8145 0.96857816 143.81128 0.042343117 -146.04239
1662775062.5 0.048158109 -88.605629 0.96867865 142.18031 0.96843523 142.17909 0.042214524 -148.41487
1675274875 0.049143329 -89.337997 0.96842998 140.54103 0.968445 140.53421 0.042697772 -150.88475
1687774687.5 0.050109226 -90.210556 0.96837646 138.91486 0.96809244 138.91284 0.04383311 -153.5916
1700274500 0.050782222 -91.384468 0.96823925 137.2876 0.9680022 137.28349 0.044898085 -155.90047
1712774312.5 0.051106162 -92.889999 0.96784836 135.66162 0.96767938 135.65857 0.045459449 -157.61284
1725274125 0.050967604 -94.712448 0.96760499 134.03369 0.96751672 134.03987 0.045843154 -158.5321
1737773937.5 0.05066115 -96.733528 0.96743989 132.41211 0.96729189 132.42107 0.046090707 -159.43622
1750273750 0.0504096 -98.435516 0.96728218 130.77861 0.96721745 130.78061 0.046311907 -160.96329
1762773562.5 0.050573394 -99.526848 0.96716452 129.15021 0.96717942 129.15002 0.046455495 -163.3288
1775273375 0.051376268 -99.974747 0.96684748 127.51563 0.96672338 127.51436 0.046734639 -166.43214
1787773187.5 0.052500419 -100.60918 0.96686018 125.87529 0.96667808 125.88446 0.046996523 -169.44798
1800273000 0.053409159 -101.6942 0.96650755 124.24928 0.96654612 124.26046 0.047580563 -171.86742
1812772812.5 0.053451702 -103.43271 0.96641517 122.62964 0.96637571 122.6327 0.048105892 -173.53056
1825272625 0.052816182 -105.5517 0.9662925 121.00549 0.96629125 121.00949 0.048468791 -175.00153
1837772437.5 0.051814381 -107.5507 0.96616459 119.37569 0.96603501 119.38982 0.048097249 -176.19095
1850272250 0.051385678 -109.34376 0.96608305 117.7548 0.96584111 117.76387 0.047519844 -177.32835
1862772062.5 0.051511712 -110.73677 0.96582639 116.11196 0.96560544 116.12972 0.047217134 -179.00078
1875271875 0.052090347 -111.7695 0.96555084 114.48257 0.96548712 114.49636 0.047605589 178.61893
1887771687.5 0.052716337 -112.15793 0.96537066 112.8497 0.96538103 112.85426 0.04826919 175.22911
1900271500 0.053219959 -112.51923 0.96502316 111.22478 0.9651143 111.22927 0.049055565 172.11569
1912771312.5 0.053500295 -113.4166 0.9650411 109.5985 0.9650116 109.60242 0.049343493 169.95769
1925271125 0.05304762 -115.1209 0.96474653 107.96909 0.96497202 107.97688 0.049522474 168.93906
1937770937.5 0.051901344 -117.15028 0.96478164 106.35066 0.96479201 106.35442 0.049731314 168.10742
1950270750 0.050731618 -118.88308 0.96460187 104.72987 0.96475852 104.72795 0.049619153 166.73135
1962770562.5 0.050384276 -120.24455 0.96435422 103.09926 0.96447742 103.11234 0.049208742 164.57574
1975270375 0.050710082 -121.40641 0.964252 101.47803 0.96431965 101.47908 0.048710093 161.98714
1987770187.5 0.051167633 -122.31841 0.96412539 99.848076 0.96416926 99.855362 0.048807256 159.44093
2000270000 0.051254202 -123.20032 0.96394622 98.214218 0.96403867 98.227692 0.049207572 156.7124
2012769812.5 0.051223665 -124.10134 0.96381849 96.588715 0.96394783 96.592583 0.049455222 154.00969
2025269625 0.050921515 -125.47357 0.96361548 94.951439 0.96381378 94.956367 0.049311042 152.04387
2037769437.5 0.050476287 -127.64363 0.96347845 93.32457 0.96369505 93.327354 0.04862576 150.93092
2050269250 0.049792297 -130.0481 0.96343344 91.690353 0.96343678 91.700951 0.048110146 150.21863
2062769062.5 0.049394958 -131.95027 0.96324319 90.062477 0.96332234 90.068542 0.04772849 148.81181
2075268875 0.049324967 -133.2775 0.96303296 88.433418 0.96320921 88.437332 0.047698073 146.60474
2087768687.5 0.049388517 -133.98071 0.96287471 86.803787 0.96301275 86.811073 0.047782574 143.66742
2100268500 0.049647022 -134.7854 0.96262521 85.180252 0.96275657 85.174782 0.048129819 140.99373
2112768312.5 0.04944934 -136.01559 0.96264678 83.548073 0.96267384 83.556747 0.048352353 139.04521
2125268125 0.048365019 -137.7598 0.96242839 81.931412 0.9626475 81.942192 0.048519459 137.93848
2137767937.5 0.046962596 -139.73106 0.96238226 80.316589 0.96244121 80.31221 0.048264261 136.98674
2150267750 0.045523554 -141.60005 0.96221042 78.695068 0.96228999 78.687531 0.047519252 135.67328
2162767562.5 0.044567738 -142.95982 0.962219 77.061867 0.96221656 77.066589 0.046416849 133.97685
2175267375 0.04414349 -143.94362 0.96193725 75.437569 0.96214557 75.434998 0.045442317 131.69923
2187767187.5 0.043756202 -144.43098 0.9620176 73.80809 0.96213078 73.806221 0.045014482 129.18141
2200267000 0.04320813 -144.64211 0.96174538 72.177437 0.96201599 72.178078 0.044691224 126.32629
2212766812.5 0.042442188 -145.17783 0.96165174 70.546951 0.96183228 70.538414 0.044420008 123.58617
2225266625 0.04138726 -146.6613 0.9616223 68.918045 0.96176291 68.91787 0.043586437 121.85547
2237766437.5 0.040154945 -149.05643 0.96140873 67.283897 0.96154821 67.283699 0.042506345 121.05853
2250266250 0.038672272 -151.49443 0.96125787 65.662567 0.96145856 65.656151 0.041418109 120.33861
2262766062.5 0.037405033 -152.91879 0.9611966 64.026878 0.96135807 64.014381 0.040687192 118.59857
2275265875 0.036975201 -153.23189 0.96105194 62.397842 0.96113032 62.388027 0.040056553 115.23532
2287765687.5 0.036895853 -153.00549 0.96092021 60.763725 0.96103823 60.758736 0.039573025 111.13
2300265500 0.036793251 -152.8712 0.96090871 59.131802 0.96099627 59.130234 0.039484877 107.90522
2312765312.5 0.035983197 -153.36185 0.9608295 57.503834 0.96069986 57.501518 0.039662287 105.50754
2325265125 0.034790032 -154.31883 0.96079993 55.886105 0.96066505 55.87611 0.039479692 103.75547
2337764937.5 0.033559863 -156.22762 0.960464 54.26593 0.96046025 54.259525 0.038645763 102.44852
2350264750 0.032482058 -158.69429 0.96039873 52.64352 0.96048081 52.632771 0.037005056 101.16643
2362764562.5 0.031377409 -160.73254 0.96024966 51.011879 0.96037233 51.004532 0.035621736 100.00031
2375264375 0.030586019 -161.55042 0.96027666 49.378548 0.9602083 49.378311 0.0344759 97.656898
2387764187.5 0.030030705 -160.90121 0.96023446 47.746433 0.96034008 47.736649 0.033701435 94.066032
2400264000 0.029424513 -159.92099 0.96015298 46.104401 0.96005797 46.105221 0.033095185 89.842133
2412763812.5 0.028620863 -160.02547 0.95987797 44.481384 0.96000558 44.47076 0.032305531 86.607704
2425263625 0.026757076 -160.98199 0.95987976 42.85714 0.95984364 42.846809 0.031210553 84.83107
2437763437.5 0.024597283 -162.44229 0.95975268 41.220058 0.95972812 41.213509 0.030157015 84.043892
